
**** 11/15/24 13:44:20 **** PSpice 22.1.0 (6 October 2022) **** ID# 0 ********

 ** Profile: "SCHEMATIC1-trans"  [ C:\Users\A1201-admin\Documents\Exjobb\Orcad\filter-pspicefiles\schematic1\trans.sim ] 


 ****     CIRCUIT DESCRIPTION


******************************************************************************




** Creating circuit file "trans.cir" 
** WARNING: THIS AUTOMATICALLY GENERATED FILE MAY BE OVERWRITTEN BY SUBSEQUENT SIMULATIONS

*Libraries: 
* Profile Libraries :
* Local Libraries :
* From [PSPICE NETLIST] section of C:\Users\A1201-admin\cdssetup\OrCAD_PSpice\22.1.0\PSpice.ini file:
.lib "C:\Users\A1201-admin\Documents\Exjobb\Orcad\lmg1210.lib" 
.lib "nom.lib" 

*Analysis directives: 
.TRAN  0 7u 0 0.1n 
.OPTIONS ADVCONV
.PROBE64 V(alias(*)) I(alias(*)) W(alias(*)) D(alias(*)) NOISE(alias(*)) 
.INC "..\SCHEMATIC1.net" 



**** INCLUDING SCHEMATIC1.net ****
* source FILTER
L_L1         N14552 N14471  1u  
R_Rdamp         N14467 N14471  200 TC=0,0 
R_Rload         0 N14502  5k TC=0,0 
L_L2         N14471 N46457  1.5u  
C_C1         0 N14467  70p  TC=0,0 
V_V1         N14552 0  
+PULSE 0 60 0 3n 3n 2n 20n
R_Rshunt         N46457 N14502  0.1 TC=0,0 
V_V4         VCC_ARROW 0 30
V_V5         VCC 0 -30
R_R2         N49514 N46457  1k TC=0,0 
R_R1         N49541 N14502  1k TC=0,0 
R_R3         N49627 N49541  10k TC=0,0 
R_R4         N49514 0  10k TC=0,0 
X_U4         N49514 N49541 VCC_ARROW VCC N49627 AD8004AN/AD
X_U5         N53122 N53126 VCC_ARROW VCC N53244 AD8004AN/AD
R_R6         N53126 N14502  1.0005k TC=0,0 
R_R8         N53244 N53126  10k TC=0,0 
R_R7         N53122 0  10.005k TC=0,0 
R_R5         N53122 N46457  1.00k TC=0,0 

**** RESUMING trans.cir ****
.END

**** 11/15/24 13:44:20 **** PSpice 22.1.0 (6 October 2022) **** ID# 0 ********

 ** Profile: "SCHEMATIC1-trans"  [ C:\Users\A1201-admin\Documents\Exjobb\Orcad\filter-pspicefiles\schematic1\trans.sim ] 


 ****     Diode MODEL PARAMETERS


******************************************************************************




               X_U4.d1         X_U4.dn         X_U5.d1         X_U5.dn         
          IS   10.000000E-15   10.000000E-15   10.000000E-15   10.000000E-15 
          KF                   10.000000E-09                   10.000000E-09 


**** 11/15/24 13:44:20 **** PSpice 22.1.0 (6 October 2022) **** ID# 0 ********

 ** Profile: "SCHEMATIC1-trans"  [ C:\Users\A1201-admin\Documents\Exjobb\Orcad\filter-pspicefiles\schematic1\trans.sim ] 


 ****     BJT MODEL PARAMETERS


******************************************************************************




               X_U4.qp1        X_U4.qn1        X_U5.qp1        X_U5.qn1        
               PNP             NPN             PNP             NPN             
       LEVEL    1               1               1               1            
          IS  100.000000E-18  100.000000E-18  100.000000E-18  100.000000E-18 
          BF  100             100             100             100            
          NF    1               1               1               1            
          BR    1               1               1               1            
          NR    1               1               1               1            
         ISS    0               0               0               0            
          RE    0               0               0               0            
          RC    0               0               0               0            
         CJE    0               0               0               0            
         VJE     .75             .75             .75             .75         
         CJC    0               0               0               0            
         VJC     .75             .75             .75             .75         
         MJC     .33             .33             .33             .33         
        XCJC    1               1               1               1            
         CJS    0               0               0               0            
         VJS     .75             .75             .75             .75         
          KF    0               0               0               0            
          AF    1               1               1               1            
          CN    2.2             2.42            2.2             2.42         
           D     .52             .87             .52             .87         


**** 11/15/24 13:44:20 **** PSpice 22.1.0 (6 October 2022) **** ID# 0 ********

 ** Profile: "SCHEMATIC1-trans"  [ C:\Users\A1201-admin\Documents\Exjobb\Orcad\filter-pspicefiles\schematic1\trans.sim ] 


 ****     INITIAL TRANSIENT SOLUTION       TEMPERATURE =   27.000 DEG C


******************************************************************************



 NODE   VOLTAGE     NODE   VOLTAGE     NODE   VOLTAGE     NODE   VOLTAGE


(  VCC)  -30.0000  (N14467)    0.0000 (N14471)    0.0000 (N14502)-7.080E-06     

(N14552)    0.0000 (N46457)    0.0000 (N49514)    -.0364 (N49541)    -.0354     

(N49627)    -.0376 (N53122)    -.0364 (N53126)    -.0354 (N53244)    -.0374     

(X_U4.3)    -.0354 (X_U4.4)    -.0354 (X_U4.5)     .7034 (X_U4.6)    -.7743     

(X_U4.7)    -.0376 (X_U4.8)   28.2500 (X_U4.9)  -28.2500 (X_U5.3)    -.0354     

(X_U5.4)    -.0354 (X_U5.5)     .7034 (X_U5.6)    -.7743 (X_U5.7)    -.0374     

(X_U5.8)   28.2500 (X_U5.9)  -28.2500 (X_U4.10)    -.0376                       

(X_U4.11)    -.7276                   (X_U4.12)     .6524                       

(X_U4.13)    -.0376                   (X_U4.14)    -.0376                       

(X_U4.15)    -.0376                   (X_U4.19)    0.0000                       

(X_U4.20)-52.06E-09                   (X_U4.21)     .4000                       

(X_U4.22)    0.0000                   (X_U4.23)-66.52E-06                       

(X_U4.24)     .5850                   (X_U4.26)    0.0000                       

(X_U4.27)    0.0000                   (X_U4.30)    -.0359                       

(X_U4.40)    -.4408                   (X_U4.90)   30.0000                       

(X_U4.91)  -30.0000                   (X_U4.98)    0.0000                       

(X_U5.10)    -.0374                   (X_U5.11)    -.7274                       

(X_U5.12)     .6526                   (X_U5.13)    -.0374                       

(X_U5.14)    -.0374                   (X_U5.15)    -.0374                       

(X_U5.19)    0.0000                   (X_U5.20)-52.06E-09                       

(X_U5.21)     .4000                   (X_U5.22)    0.0000                       

(X_U5.23)-66.52E-06                   (X_U5.24)     .5850                       

(X_U5.26)    0.0000                   (X_U5.27)    0.0000                       

(X_U5.30)    -.0359                   (X_U5.40)    -.4391                       

(X_U5.90)   30.0000                   (X_U5.91)  -30.0000                       

(X_U5.98)    0.0000                   (VCC_ARROW)   30.0000                 




    VOLTAGE SOURCE CURRENTS
    NAME         CURRENT

    V_V1        -1.437E-04
    V_V4        -2.808E-02
    V_V5         2.808E-02
    X_U4.v1     -1.295E-07
    X_U4.vcl1    2.830E-11
    X_U4.vcl2    2.822E-11
    X_U4.vnoise1   5.206E-08
    X_U4.vnoise2  -5.206E-08
    X_U4.vnoise3   6.652E-05
    X_U4.vnoise4  -6.652E-05
    X_U4.vcur1  -4.508E-13
    X_U4.vcur2   2.520E-07
    X_U4.vo1    -9.703E-08
    X_U4.vo2     9.709E-08
    X_U4.voc    -2.520E-07
    X_U4.vcl3    3.855E-03
    X_U4.vcl4    3.855E-03
    X_U5.v1     -1.290E-07
    X_U5.vcl1    2.830E-11
    X_U5.vcl2    2.822E-11
    X_U5.vnoise1   5.206E-08
    X_U5.vnoise2  -5.206E-08
    X_U5.vnoise3   6.652E-05
    X_U5.vnoise4  -6.652E-05
    X_U5.vcur1  -4.491E-13
    X_U5.vcur2   2.364E-07
    X_U5.vo1    -9.101E-08
    X_U5.vo2     9.107E-08
    X_U5.voc    -2.364E-07
    X_U5.vcl3    3.855E-03
    X_U5.vcl4    3.855E-03

    TOTAL POWER DISSIPATION   1.70E+00  WATTS



          JOB CONCLUDED

**** 11/15/24 13:44:20 **** PSpice 22.1.0 (6 October 2022) **** ID# 0 ********

 ** Profile: "SCHEMATIC1-trans"  [ C:\Users\A1201-admin\Documents\Exjobb\Orcad\filter-pspicefiles\schematic1\trans.sim ] 


 ****     JOB STATISTICS SUMMARY


******************************************************************************



  License check-out time            =     1497.44
  Total job time (using Solver 1)   =        8.19
