
**** 11/18/24 16:51:33 **** PSpice 22.1.0 (6 October 2022) **** ID# 0 ********

 ** Profile: "SCHEMATIC1-trans"  [ C:\Users\A1201-admin\Documents\Exjobb\Orcad\filter-pspicefiles\schematic1\trans.sim ] 


 ****     CIRCUIT DESCRIPTION


******************************************************************************




** Creating circuit file "trans.cir" 
** WARNING: THIS AUTOMATICALLY GENERATED FILE MAY BE OVERWRITTEN BY SUBSEQUENT SIMULATIONS

*Libraries: 
* Profile Libraries :
* Local Libraries :
* From [PSPICE NETLIST] section of C:\Users\A1201-admin\cdssetup\OrCAD_PSpice\22.1.0\PSpice.ini file:
.lib "C:\Users\A1201-admin\Documents\Exjobb\Orcad\lmg1210.lib" 
.lib "nom.lib" 

*Analysis directives: 
.TRAN  0 7u 0 0.1n 
.OPTIONS ADVCONV
.PROBE64 V(alias(*)) I(alias(*)) W(alias(*)) D(alias(*)) NOISE(alias(*)) 
.INC "..\SCHEMATIC1.net" 



**** INCLUDING SCHEMATIC1.net ****
* source FILTER
L_L1         N14552 N14471  1u  
R_Rdamp         N14467 N14471  200 TC=0,0 
R_Rload         0 N14502  150 TC=0,0 
L_L2         N14471 N46457  1.5u  
C_C1         0 N14467  70p  TC=0,0 
V_V1         N14552 0  
+PULSE 0 60 0 3n 3n 14n 20n
R_Rshunt         N46457 N14502  0.1 TC=0,0 
V_V4         VCC_ARROW 0 30
V_V5         VCC 0 -30
R_R2         N49514 N46457  1k TC=0,0 
R_R1         N49541 N14502  1k TC=0,0 
R_R3         N49627 N49541  1k TC=0,0 
R_R4         N49514 0  1k TC=0,0 
X_U4         N49514 N49541 VCC_ARROW VCC N49627 AD8004AN/AD
X_U5         N53122 N53126 VCC_ARROW VCC N53244 AD8004AN/AD
R_R6         N53126 N53508  10001 TC=0,0 
R_R8         N53244 N53126  9999 TC=0,0 
R_R7         N53122 0  10001 TC=0,0 
R_R5         N53122 N80210  9999 TC=0,0 
C_C2         N49514 0  30p  TC=0,0 
C_C3         N49541 N49627  30p  TC=0,0 
X_U6         0 N71363 VCC_ARROW VCC N71372 AD8004AN/AD
R_R9         N53244 N71363  1.0001k TC=0,0 
R_R10         N71363 N71372  999.9 TC=0,0 
C_C6         N71363 N71372  {1.001p*3}  TC=0,0 
R_R11         N76028 N14502  10.001k TC=0,0 
R_R12         N76024 N46457  9999 TC=0,0 
R_R13         N76024 0  1000.1 TC=0,0 
R_R14         N76176 N76028  999.9 TC=0,0 
X_U7         N76024 N76028 VCC_ARROW VCC N76176 AD8004AN/AD
C_C7         N80210 N46457  0.01p  TC=0,0 
C_C8         N53508 N14502  0.01p  TC=0,0 
C_C9         N76176 N76028  0.01p  TC=0,0 
C_C10         N76024 0  0.01p  TC=0,0 

**** RESUMING trans.cir ****
.END

**** 11/18/24 16:51:33 **** PSpice 22.1.0 (6 October 2022) **** ID# 0 ********

 ** Profile: "SCHEMATIC1-trans"  [ C:\Users\A1201-admin\Documents\Exjobb\Orcad\filter-pspicefiles\schematic1\trans.sim ] 


 ****     Diode MODEL PARAMETERS


******************************************************************************




               X_U4.d1         X_U4.dn         X_U5.d1         X_U5.dn         
          IS   10.000000E-15   10.000000E-15   10.000000E-15   10.000000E-15 
          KF                   10.000000E-09                   10.000000E-09 


               X_U6.d1         X_U6.dn         X_U7.d1         X_U7.dn         
          IS   10.000000E-15   10.000000E-15   10.000000E-15   10.000000E-15 
          KF                   10.000000E-09                   10.000000E-09 


**** 11/18/24 16:51:33 **** PSpice 22.1.0 (6 October 2022) **** ID# 0 ********

 ** Profile: "SCHEMATIC1-trans"  [ C:\Users\A1201-admin\Documents\Exjobb\Orcad\filter-pspicefiles\schematic1\trans.sim ] 


 ****     BJT MODEL PARAMETERS


******************************************************************************




               X_U4.qp1        X_U4.qn1        X_U5.qp1        X_U5.qn1        
               PNP             NPN             PNP             NPN             
       LEVEL    1               1               1               1            
          IS  100.000000E-18  100.000000E-18  100.000000E-18  100.000000E-18 
          BF  100             100             100             100            
          NF    1               1               1               1            
          BR    1               1               1               1            
          NR    1               1               1               1            
         ISS    0               0               0               0            
          RE    0               0               0               0            
          RC    0               0               0               0            
         CJE    0               0               0               0            
         VJE     .75             .75             .75             .75         
         CJC    0               0               0               0            
         VJC     .75             .75             .75             .75         
         MJC     .33             .33             .33             .33         
        XCJC    1               1               1               1            
         CJS    0               0               0               0            
         VJS     .75             .75             .75             .75         
          KF    0               0               0               0            
          AF    1               1               1               1            
          CN    2.2             2.42            2.2             2.42         
           D     .52             .87             .52             .87         


               X_U6.qp1        X_U6.qn1        X_U7.qp1        X_U7.qn1        
               PNP             NPN             PNP             NPN             
       LEVEL    1               1               1               1            
          IS  100.000000E-18  100.000000E-18  100.000000E-18  100.000000E-18 
          BF  100             100             100             100            
          NF    1               1               1               1            
          BR    1               1               1               1            
          NR    1               1               1               1            
         ISS    0               0               0               0            
          RE    0               0               0               0            
          RC    0               0               0               0            
         CJE    0               0               0               0            
         VJE     .75             .75             .75             .75         
         CJC    0               0               0               0            
         VJC     .75             .75             .75             .75         
         MJC     .33             .33             .33             .33         
        XCJC    1               1               1               1            
         CJS    0               0               0               0            
         VJS     .75             .75             .75             .75         
          KF    0               0               0               0            
          AF    1               1               1               1            
          CN    2.2             2.42            2.2             2.42         
           D     .52             .87             .52             .87         


**** 11/18/24 16:51:33 **** PSpice 22.1.0 (6 October 2022) **** ID# 0 ********

 ** Profile: "SCHEMATIC1-trans"  [ C:\Users\A1201-admin\Documents\Exjobb\Orcad\filter-pspicefiles\schematic1\trans.sim ] 


 ****     INITIAL TRANSIENT SOLUTION       TEMPERATURE =   27.000 DEG C


******************************************************************************



 NODE   VOLTAGE     NODE   VOLTAGE     NODE   VOLTAGE     NODE   VOLTAGE


(  VCC)  -30.0000  (N14467)    0.0000 (N14471)    0.0000 (N14502)-2.256E-06     

(N14552)    0.0000 (N46457)    0.0000 (N49514)    -.0200 (N49541)    -.0190     

(N49627)    -.0030 (N53122)    -.4007 (N53126)    -.3997 (N53244)    -.0474     

(N53508)    -.3997 (N71363) 984.9E-06 (N71372)     .0841 (N76024)    -.0364     

(N76028)    -.0354 (N76176)    -.0039 (N80210)    -.4007 (X_U4.3)    -.0190     

(X_U4.4)    -.0190 (X_U4.5)     .7198 (X_U4.6)    -.7579 (X_U4.7)    -.0026     

(X_U4.8)   28.2500 (X_U4.9)  -28.2500 (X_U5.3)    -.3997 (X_U5.4)    -.3997     

(X_U5.5)     .3392 (X_U5.6)   -1.1386 (X_U5.7)    -.0477 (X_U5.8)   28.2500     

(X_U5.9)  -28.2500 (X_U6.3) 999.9E-06 (X_U6.4) 984.9E-06 (X_U6.5)     .7399     

(X_U6.6)    -.7379 (X_U6.7)     .0861 (X_U6.8)   28.2500 (X_U6.9)  -28.2500     

(X_U7.3)    -.0354 (X_U7.4)    -.0354 (X_U7.5)     .7034 (X_U7.6)    -.7743     

(X_U7.7)    -.0031 (X_U7.8)   28.2500 (X_U7.9)  -28.2500 (X_U4.10)    -.0030    

(X_U4.11)    -.6930                   (X_U4.12)     .6870                       

(X_U4.13)    -.0030                   (X_U4.14)    -.0026                       

(X_U4.15)    -.0026                   (X_U4.19)    0.0000                       

(X_U4.20)-52.06E-09                   (X_U4.21)     .4000                       

(X_U4.22)    0.0000                   (X_U4.23)-66.52E-06                       

(X_U4.24)     .5850                   (X_U4.26)    0.0000                       

(X_U4.27)    0.0000                   (X_U4.30)    -.0195                       

(X_U4.40)     .5482                   (X_U4.90)   30.0000                       

(X_U4.91)  -30.0000                   (X_U4.98)    0.0000                       

(X_U5.10)    -.0474                   (X_U5.11)    -.7374                       

(X_U5.12)     .6426                   (X_U5.13)    -.0474                       

(X_U5.14)    -.0477                   (X_U5.15)    -.0477                       

(X_U5.19)    0.0000                   (X_U5.20)-52.06E-09                       

(X_U5.21)     .4000                   (X_U5.22)    0.0000                       

(X_U5.23)-66.52E-06                   (X_U5.24)     .5850                       

(X_U5.26)    0.0000                   (X_U5.27)    0.0000                       

(X_U5.30)    -.4002                   (X_U5.40)    -.5432                       

(X_U5.90)   30.0000                   (X_U5.91)  -30.0000                       

(X_U5.98)    0.0000                   (X_U6.10)     .0841                       

(X_U6.11)    -.6059                   (X_U6.12)     .7741                       

(X_U6.13)     .0842                   (X_U6.14)     .0861                       

(X_U6.15)     .0861                   (X_U6.19)    0.0000                       

(X_U6.20)-52.06E-09                   (X_U6.21)     .4000                       

(X_U6.22)    0.0000                   (X_U6.23)-66.52E-06                       

(X_U6.24)     .5850                   (X_U6.26)    0.0000                       

(X_U6.27)    0.0000                   (X_U6.30) 492.4E-06                       

(X_U6.40)     .5908                   (X_U6.90)   30.0000                       

(X_U6.91)  -30.0000                   (X_U6.98)    0.0000                       

(X_U7.10)    -.0039                   (X_U7.11)    -.6939                       

(X_U7.12)     .6861                   (X_U7.13)    -.0039                       

(X_U7.14)    -.0031                   (X_U7.15)    -.0031                       

(X_U7.19)    0.0000                   (X_U7.20)-52.06E-09                       

(X_U7.21)     .4000                   (X_U7.22)    0.0000                       

(X_U7.23)-66.52E-06                   (X_U7.24)     .5850                       

(X_U7.26)    0.0000                   (X_U7.27)    0.0000                       

(X_U7.30)    -.0359                   (X_U7.40)     .5657                       

(X_U7.90)   30.0000                   (X_U7.91)  -30.0000                       

(X_U7.98)    0.0000                   (VCC_ARROW)   30.0000                 




    VOLTAGE SOURCE CURRENTS
    NAME         CURRENT

    V_V1        -4.623E-05
    V_V4        -5.629E-02
    V_V5         5.617E-02
    X_U4.v1     -8.990E-09
    X_U4.vcl1    2.826E-11
    X_U4.vcl2    2.826E-11
    X_U4.vnoise1   5.206E-08
    X_U4.vnoise2  -5.206E-08
    X_U4.vnoise3   6.652E-05
    X_U4.vnoise4  -6.652E-05
    X_U4.vcur1   1.604E-05
    X_U4.vcur2  -5.582E-13
    X_U4.vo1     6.179E-06
    X_U4.vo2    -6.179E-06
    X_U4.voc     1.604E-05
    X_U4.vcl3    3.857E-03
    X_U4.vcl4    3.853E-03
    X_U5.v1     -1.646E-07
    X_U5.vcl1    2.831E-11
    X_U5.vcl2    2.821E-11
    X_U5.vnoise1   5.206E-08
    X_U5.vnoise2  -5.206E-08
    X_U5.vnoise3   6.652E-05
    X_U5.vnoise4  -6.652E-05
    X_U5.vcur1  -5.532E-13
    X_U5.vcur2   1.322E-05
    X_U5.vo1    -5.091E-06
    X_U5.vo2     5.091E-06
    X_U5.voc    -1.322E-05
    X_U5.vcl3    3.854E-03
    X_U5.vcl4    3.857E-03
    X_U6.v1      2.970E-07
    X_U6.vcl1    2.817E-11
    X_U6.vcl2    2.835E-11
    X_U6.vnoise1   5.206E-08
    X_U6.vnoise2  -5.206E-08
    X_U6.vnoise3   6.652E-05
    X_U6.vnoise4  -6.652E-05
    X_U6.vcur1   8.325E-05
    X_U6.vcur2  -6.008E-13
    X_U6.vo1     3.207E-05
    X_U6.vo2    -3.207E-05
    X_U6.voc     8.325E-05
    X_U6.vcl3    3.865E-03
    X_U6.vcl4    3.845E-03
    X_U7.v1     -1.085E-08
    X_U7.vcl1    2.826E-11
    X_U7.vcl2    2.826E-11
    X_U7.vnoise1   5.206E-08
    X_U7.vnoise2  -5.206E-08
    X_U7.vnoise3   6.652E-05
    X_U7.vnoise4  -6.652E-05
    X_U7.vcur1   3.153E-05
    X_U7.vcur2  -5.757E-13
    X_U7.vo1     1.215E-05
    X_U7.vo2    -1.215E-05
    X_U7.voc     3.153E-05
    X_U7.vcl3    3.859E-03
    X_U7.vcl4    3.851E-03

    TOTAL POWER DISSIPATION   3.40E+00  WATTS



          JOB CONCLUDED

**** 11/18/24 16:51:33 **** PSpice 22.1.0 (6 October 2022) **** ID# 0 ********

 ** Profile: "SCHEMATIC1-trans"  [ C:\Users\A1201-admin\Documents\Exjobb\Orcad\filter-pspicefiles\schematic1\trans.sim ] 


 ****     JOB STATISTICS SUMMARY


******************************************************************************



  License check-out time            =     2668.79
  Total job time (using Solver 1)   =       11.97
