
**** 12/11/24 15:15:36 **** PSpice 22.1.0 (6 October 2022) **** ID# 0 ********

 ** Profile: "SCHEMATIC1-trans"  [ C:\Users\A1201-admin\Documents\Exjobb\Orcad\filter-pspicefiles\schematic1\trans.sim ] 


 ****     CIRCUIT DESCRIPTION


******************************************************************************




** Creating circuit file "trans.cir" 
** WARNING: THIS AUTOMATICALLY GENERATED FILE MAY BE OVERWRITTEN BY SUBSEQUENT SIMULATIONS

*Libraries: 
* Profile Libraries :
* Local Libraries :
* From [PSPICE NETLIST] section of C:\Users\A1201-admin\cdssetup\OrCAD_PSpice\22.1.0\PSpice.ini file:
.lib "C:\Users\A1201-admin\Documents\Exjobb\Orcad\lmg1210.lib" 
.lib "nom.lib" 

*Analysis directives: 
.TRAN  0 7u 0 0.1n 
.OPTIONS ADVCONV
.PROBE64 V(alias(*)) I(alias(*)) W(alias(*)) D(alias(*)) NOISE(alias(*)) 
.INC "..\SCHEMATIC1.net" 



**** INCLUDING SCHEMATIC1.net ****
* source FILTER
L_L1         N14552 N14473  0.96u  
R_Rdamp         N14467 N14473  200 TC=0,0 
R_Rload         0 N14502  100 TC=0,0 
L_L2         N14473 N46457  1.7u  
C_C1         0 N14467  70p  TC=0,0 
V_V1         N14552 0  
+PULSE 0 30 0 3n 3n 25n 50n
R_Rshunt         N46457 N49021  0.1 TC=0,0 
V_V4         VCC_ARROW 0 30
V_V5         VCC 0 -30
R_R2         N49514 N46457  20k TC=0,0 
R_R1         N49541 N49021  20k TC=0,0 
R_R3         N49627 N49541  1k TC=0,0 
R_R4         N49514 0  1k TC=0,0 
X_U4         N49514 N49541 VCC_ARROW VCC N49627 AD8004AN/AD
X_U6         0 N71363 VCC_ARROW VCC N71372 AD8004AN/AD
R_R10         N71363 N71372  100 TC=0,0 
R_R11         N76028 N49021  10.001k TC=0,0 
R_R12         N76024 N46457  9999 TC=0,0 
R_R13         N76024 0  1000.1 TC=0,0 
R_R14         N76176 N76028  999.9 TC=0,0 
X_U7         N76024 N76028 VCC_ARROW VCC N76176 AD8004AN/AD
R_Rshunt2         N82074 N82070  0.1 TC=0,0 
R_R19         N84482 N82074  10k TC=0,0 
R_R21         N84482 0  10k TC=0,0 
R_R20         N84486 N82070  10k TC=0,0 
X_U9         N84482 N84486 VCC_ARROW VCC N84620 AD8004AN/AD
R_R22         N84620 N84486  10k TC=0,0 
X_TX3    N82074 N82070 N49021 N14502 SCHEMATIC1_TX3 
R_R23         N84620 N71363  100 TC=0,0 
V_V6         VCC-1 0 1
R_R24         VCC-1 N71363  100 TC=0,0 

.subckt SCHEMATIC1_TX3 1 2 3 4  
K_TX3         L1_TX3 L2_TX3 0.99
L1_TX3         1 2 1n
L2_TX3         3 4 1n
.ends SCHEMATIC1_TX3

**** RESUMING trans.cir ****
.END

**** 12/11/24 15:15:36 **** PSpice 22.1.0 (6 October 2022) **** ID# 0 ********

 ** Profile: "SCHEMATIC1-trans"  [ C:\Users\A1201-admin\Documents\Exjobb\Orcad\filter-pspicefiles\schematic1\trans.sim ] 


 ****     Diode MODEL PARAMETERS


******************************************************************************




               X_U4.d1         X_U4.dn         X_U6.d1         X_U6.dn         
          IS   10.000000E-15   10.000000E-15   10.000000E-15   10.000000E-15 
          KF                   10.000000E-09                   10.000000E-09 


               X_U7.d1         X_U7.dn         X_U9.d1         X_U9.dn         
          IS   10.000000E-15   10.000000E-15   10.000000E-15   10.000000E-15 
          KF                   10.000000E-09                   10.000000E-09 


**** 12/11/24 15:15:36 **** PSpice 22.1.0 (6 October 2022) **** ID# 0 ********

 ** Profile: "SCHEMATIC1-trans"  [ C:\Users\A1201-admin\Documents\Exjobb\Orcad\filter-pspicefiles\schematic1\trans.sim ] 


 ****     BJT MODEL PARAMETERS


******************************************************************************




               X_U4.qp1        X_U4.qn1        X_U6.qp1        X_U6.qn1        
               PNP             NPN             PNP             NPN             
       LEVEL    1               1               1               1            
          IS  100.000000E-18  100.000000E-18  100.000000E-18  100.000000E-18 
          BF  100             100             100             100            
          NF    1               1               1               1            
          BR    1               1               1               1            
          NR    1               1               1               1            
         ISS    0               0               0               0            
          RE    0               0               0               0            
          RC    0               0               0               0            
         CJE    0               0               0               0            
         VJE     .75             .75             .75             .75         
         CJC    0               0               0               0            
         VJC     .75             .75             .75             .75         
         MJC     .33             .33             .33             .33         
        XCJC    1               1               1               1            
         CJS    0               0               0               0            
         VJS     .75             .75             .75             .75         
          KF    0               0               0               0            
          AF    1               1               1               1            
          CN    2.2             2.42            2.2             2.42         
           D     .52             .87             .52             .87         


               X_U7.qp1        X_U7.qn1        X_U9.qp1        X_U9.qn1        
               PNP             NPN             PNP             NPN             
       LEVEL    1               1               1               1            
          IS  100.000000E-18  100.000000E-18  100.000000E-18  100.000000E-18 
          BF  100             100             100             100            
          NF    1               1               1               1            
          BR    1               1               1               1            
          NR    1               1               1               1            
         ISS    0               0               0               0            
          RE    0               0               0               0            
          RC    0               0               0               0            
         CJE    0               0               0               0            
         VJE     .75             .75             .75             .75         
         CJC    0               0               0               0            
         VJC     .75             .75             .75             .75         
         MJC     .33             .33             .33             .33         
        XCJC    1               1               1               1            
         CJS    0               0               0               0            
         VJS     .75             .75             .75             .75         
          KF    0               0               0               0            
          AF    1               1               1               1            
          CN    2.2             2.42            2.2             2.42         
           D     .52             .87             .52             .87         


**** 12/11/24 15:15:36 **** PSpice 22.1.0 (6 October 2022) **** ID# 0 ********

 ** Profile: "SCHEMATIC1-trans"  [ C:\Users\A1201-admin\Documents\Exjobb\Orcad\filter-pspicefiles\schematic1\trans.sim ] 


 ****     INITIAL TRANSIENT SOLUTION       TEMPERATURE =   27.000 DEG C


******************************************************************************



 NODE   VOLTAGE     NODE   VOLTAGE     NODE   VOLTAGE     NODE   VOLTAGE


(  VCC)  -30.0000  (VCC-1)    1.0000  (N14467)    0.0000 (N14473)    0.0000     

(N14502)-539.5E-09 (N14552)    0.0000 (N46457)    0.0000 (N49021)-539.5E-09     

(N49514)    -.0382 (N49541)    -.0372 (N49627)    -.0039 (N71363)     .0012     

(N71372)    -.9464 (N76024)    -.0364 (N76028)    -.0354 (N76176)    -.0039     

(N82070)    -.3997 (N82074)    -.3997 (N84482)    -.4002 (N84486)    -.3992     

(N84620)    -.0460 (X_U4.3)    -.0372 (X_U4.4)    -.0372 (X_U4.5)     .7017     

(X_U4.6)    -.7760 (X_U4.7)    -.0032 (X_U4.8)   28.2500 (X_U4.9)  -28.2500     

(X_U6.3) 999.9E-06 (X_U6.4)     .0012 (X_U6.5)     .7399 (X_U6.6)    -.7379     

(X_U6.7)   -1.1736 (X_U6.8)   28.2500 (X_U6.9)  -28.2500 (X_U7.3)    -.0354     

(X_U7.4)    -.0354 (X_U7.5)     .7034 (X_U7.6)    -.7743 (X_U7.7)    -.0031     

(X_U7.8)   28.2500 (X_U7.9)  -28.2500 (X_U9.3)    -.3992 (X_U9.4)    -.3992     

(X_U9.5)     .3397 (X_U9.6)   -1.1380 (X_U9.7)    -.0564 (X_U9.8)   28.2500     

(X_U9.9)  -28.2500 (X_U4.10)    -.0039                   (X_U4.11)    -.6939    

(X_U4.12)     .6861                   (X_U4.13)    -.0039                       

(X_U4.14)    -.0032                   (X_U4.15)    -.0032                       

(X_U4.19)    0.0000                   (X_U4.20)-52.06E-09                       

(X_U4.21)     .4000                   (X_U4.22)    0.0000                       

(X_U4.23)-66.52E-06                   (X_U4.24)     .5850                       

(X_U4.26)    0.0000                   (X_U4.27)    0.0000                       

(X_U4.30)    -.0377                   (X_U4.40)     .5670                       

(X_U4.90)   30.0000                   (X_U4.91)  -30.0000                       

(X_U4.98)    0.0000                   (X_U6.10)    -.9464                       

(X_U6.11)   -1.6364                   (X_U6.12)    -.2564                       

(X_U6.13)    -.9537                   (X_U6.14)   -1.1736                       

(X_U6.15)   -1.1736                   (X_U6.19)    0.0000                       

(X_U6.20)-52.06E-09                   (X_U6.21)     .4000                       

(X_U6.22)    0.0000                   (X_U6.23)-66.52E-06                       

(X_U6.24)     .5850                   (X_U6.26)    0.0000                       

(X_U6.27)    0.0000                   (X_U6.30) 602.6E-06                       

(X_U6.40)    -.7133                   (X_U6.90)   30.0000                       

(X_U6.91)  -30.0000                   (X_U6.98)    0.0000                       

(X_U7.10)    -.0039                   (X_U7.11)    -.6939                       

(X_U7.12)     .6861                   (X_U7.13)    -.0039                       

(X_U7.14)    -.0031                   (X_U7.15)    -.0031                       

(X_U7.19)    0.0000                   (X_U7.20)-52.06E-09                       

(X_U7.21)     .4000                   (X_U7.22)    0.0000                       

(X_U7.23)-66.52E-06                   (X_U7.24)     .5850                       

(X_U7.26)    0.0000                   (X_U7.27)    0.0000                       

(X_U7.30)    -.0359                   (X_U7.40)     .5657                       

(X_U7.90)   30.0000                   (X_U7.91)  -30.0000                       

(X_U7.98)    0.0000                   (X_U9.10)    -.0460                       

(X_U9.11)    -.7360                   (X_U9.12)     .6440                       

(X_U9.13)    -.0464                   (X_U9.14)    -.0564                       

(X_U9.15)    -.0564                   (X_U9.19)    0.0000                       

(X_U9.20)-52.06E-09                   (X_U9.21)     .4000                       

(X_U9.22)    0.0000                   (X_U9.23)-66.52E-06                       

(X_U9.24)     .5850                   (X_U9.26)    0.0000                       

(X_U9.27)    0.0000                   (X_U9.30)    -.3997                       

(X_U9.40)    -.6337                   (X_U9.90)   30.0000                       

(X_U9.91)  -30.0000                   (X_U9.98)    0.0000                       

(VCC_ARROW)   30.0000                 




    VOLTAGE SOURCE CURRENTS
    NAME         CURRENT

    V_V1        -1.095E-05
    V_V4        -5.622E-02
    V_V5         6.608E-02
    V_V6        -9.988E-03
    X_U4.v1     -1.086E-08
    X_U4.vcl1    2.826E-11
    X_U4.vcl2    2.826E-11
    X_U4.vnoise1   5.206E-08
    X_U4.vnoise2  -5.206E-08
    X_U4.vnoise3   6.652E-05
    X_U4.vnoise4  -6.652E-05
    X_U4.vcur1   3.322E-05
    X_U4.vcur2  -5.770E-13
    X_U4.vo1     1.279E-05
    X_U4.vo2    -1.279E-05
    X_U4.voc     3.322E-05
    X_U4.vcl3    3.859E-03
    X_U4.vcl4    3.851E-03
    X_U6.v1     -4.047E-06
    X_U6.vcl1    2.943E-11
    X_U6.vcl2    2.709E-11
    X_U6.vnoise1   5.206E-08
    X_U6.vnoise2  -5.206E-08
    X_U6.vnoise3   6.652E-05
    X_U6.vnoise4  -6.652E-05
    X_U6.vcur1  -7.233E-13
    X_U6.vcur2   9.477E-03
    X_U6.vo1    -3.639E-03
    X_U6.vo2     3.639E-03
    X_U6.voc    -9.477E-03
    X_U6.vcl3    2.909E-03
    X_U6.vcl4    5.108E-03
    X_U7.v1     -1.085E-08
    X_U7.vcl1    2.826E-11
    X_U7.vcl2    2.826E-11
    X_U7.vnoise1   5.206E-08
    X_U7.vnoise2  -5.206E-08
    X_U7.vnoise3   6.652E-05
    X_U7.vnoise4  -6.652E-05
    X_U7.vcur1   3.153E-05
    X_U7.vcur2  -5.757E-13
    X_U7.vo1     1.215E-05
    X_U7.vo2    -1.215E-05
    X_U7.voc     3.153E-05
    X_U7.vcl3    3.859E-03
    X_U7.vcl4    3.851E-03
    X_U9.v1     -1.945E-07
    X_U9.vcl1    2.832E-11
    X_U9.vcl2    2.820E-11
    X_U9.vnoise1   5.206E-08
    X_U9.vnoise2  -5.206E-08
    X_U9.vnoise3   6.652E-05
    X_U9.vnoise4  -6.652E-05
    X_U9.vcur1  -6.437E-13
    X_U9.vcur2   4.371E-04
    X_U9.vo1    -1.684E-04
    X_U9.vo2     1.684E-04
    X_U9.voc    -4.371E-04
    X_U9.vcl3    3.805E-03
    X_U9.vcl4    3.906E-03

    TOTAL POWER DISSIPATION   3.70E+00  WATTS



          JOB CONCLUDED

**** 12/11/24 15:15:36 **** PSpice 22.1.0 (6 October 2022) **** ID# 0 ********

 ** Profile: "SCHEMATIC1-trans"  [ C:\Users\A1201-admin\Documents\Exjobb\Orcad\filter-pspicefiles\schematic1\trans.sim ] 


 ****     JOB STATISTICS SUMMARY


******************************************************************************



  License check-out time            =     4077.37
  Total job time (using Solver 1)   =       12.52
